  can0  20D   [8]  62 0A 00 00 00 00 00 00
  can0  106   [8]  08 00 00 00 00 00 00 00
  can0  0D9   [8]  A3 0B 00 00 08 00 00 00
  can0  20D   [8]  3F 0B 00 00 00 00 00 00
  can0  106   [8]  09 00 00 00 00 00 00 00
  can0  20D   [8]  B1 0C 00 00 00 00 00 00
  can0  0D9   [8]  2D 0C 00 00 08 00 00 00
  can0  106   [8]  0A 00 00 00 00 00 00 00
  can0  0D9   [8]  70 0D 00 00 08 00 00 00
  can0  20D   [8]  EC 0D 00 00 00 00 00 00
  can0  106   [8]  0B 00 00 00 00 00 00 00
  can0  20D   [8]  0B 0E 00 00 00 00 00 00
  can0  0D9   [8]  97 0E 00 00 08 00 00 00
  can0  112   [8]  1E 03 01 04 00 00 00 00
  can0  102   [3]  80 43 00
  can0  0D9   [8]  96 00 00 00 08 00 00 00
  can0  43A   [8]  ED 03 00 00 00 00 00 00
  can0  20D   [8]  0A 00 00 00 00 00 00 00
  can0  106   [8]  0C 00 00 00 00 00 00 00
  can0  0D9   [8]  CB 01 00 00 08 00 00 00
  can0  20D   [8]  57 01 00 00 00 00 00 00
  can0  106   [8]  0D 00 00 00 00 00 00 00
  can0  20D   [8]  B0 02 00 00 00 00 00 00
  can0  0D9   [8]  2C 02 00 00 08 00 00 00
  can0  106   [8]  0E 00 00 00 00 00 00 00
  can0  0D9   [8]  71 03 00 00 08 00 00 00
  can0  20D   [8]  ED 03 00 00 00 00 00 00
  can0  106   [8]  00 00 00 00 00 00 00 00
  can0  20D   [8]  63 04 00 00 00 00 00 00
  can0  0D9   [8]  FF 04 00 00 08 00 00 00
  can0  43A   [8]  63 04 00 00 00 00 00 00
  can0  0D9   [8]  A2 05 00 00 08 00 00 00
  can0  112   [8]  90 04 01 04 00 00 00 00
  can0  102   [3]  79 44 00
  can0  20D   [8]  3E 05 00 00 00 00 00 00
  can0  106   [8]  01 00 00 00 00 00 00 00
  can0  0D9   [8]  45 06 00 00 08 00 00 00
  can0  20D   [8]  D9 06 00 00 00 00 00 00
  can0  106   [8]  02 00 00 00 00 00 00 00
  can0  20D   [8]  84 07 00 00 00 00 00 00
  can0  0D9   [8]  18 07 00 00 08 00 00 00
  can0  106   [8]  03 00 00 00 00 00 00 00
  can0  0D9   [8]  44 08 00 00 08 00 00 00
  can0  20D   [8]  D8 08 00 00 00 00 00 00
  can0  106   [8]  04 00 00 00 00 00 00 00
  can0  20D   [8]  85 09 00 00 00 00 00 00
  can0  0D9   [8]  19 09 00 00 08 00 00 00
  can0  112   [8]  CD 05 01 04 00 00 00 00
  can0  102   [3]  35 45 00
  can0  0D9   [8]  FE 0A 00 00 08 00 00 00
  can0  502   [8]  00 00 FF FF FF FF FF FF
  can0  3F7   [8]  00 00 00 00 00 00 00 00
  can0  4AC   [8]  3E 05 00 00 00 00 00 00
  can0  43A   [8]  3E 05 00 00 00 00 00 00
  can0  481   [8]  3E 05 00 00 00 00 00 00
  can0  488   [8]  3E 05 00 00 00 00 00 00
  can0  20D   [8]  62 0A 00 00 00 00 00 00
  can0  4C0   [8]  3E 05 00 00 00 00 00 00
  can0  4A9   [8]  3E 05 00 00 00 00 00 00
  can0  106   [8]  05 00 00 00 00 00 00 00
  can0  0D9   [8]  A3 0B 00 00 08 00 00 00
  can0  20D   [8]  3F 0B 00 00 00 00 00 00
  can0  106   [8]  06 00 00 00 00 00 00 00
  can0  0D9   [8]  2D 0C 00 00 08 00 00 00
  can0  20D   [8]  B1 0C 00 00 00 00 00 00
  can0  106   [8]  07 00 00 00 00 00 00 00
  can0  20D   [8]  EC 0D 00 00 00 00 00 00
  can0  0D9   [8]  70 0D 00 00 08 00 00 00
  can0  106   [8]  08 00 00 00 00 00 00 00
  can0  0D9   [8]  97 0E 00 00 08 00 00 00
  can0  20D   [8]  0B 0E 00 00 00 00 00 00
  can0  43A   [8]  D9 06 00 00 00 00 00 00
  can0  20D   [8]  0A 00 00 00 00 00 00 00
  can0  112   [8]  2A 06 01 04 00 00 00 00
  can0  102   [3]  E1 46 00
  can0  0D9   [8]  96 00 00 00 08 00 00 00
  can0  106   [8]  09 00 00 00 00 00 00 00
  can0  20D   [8]  57 01 00 00 00 00 00 00
  can0  0D9   [8]  CB 01 00 00 08 00 00 00
  can0  106   [8]  0A 00 00 00 00 00 00 00
  can0  0D9   [8]  2C 02 00 00 08 00 00 00
  can0  20D   [8]  B0 02 00 00 00 00 00 00
  can0  106   [8]  0B 00 00 00 00 00 00 00
  can0  20D   [8]  ED 03 00 00 00 00 00 00
  can0  0D9   [8]  71 03 00 00 08 00 00 00
  can0  106   [8]  0C 00 00 00 00 00 00 00
  can0  0D9   [8]  FF 04 00 00 08 00 00 00
  can0  20D   [8]  63 04 00 00 00 00 00 00
  can0  112   [8]  77 07 01 04 00 00 00 00
  can0  102   [3]  AD 47 00
  can0  20D   [8]  3E 05 00 00 00 00 00 00
  can0  43A   [8]  84 07 00 00 00 00 00 00
  can0  0D9   [8]  A2 05 00 00 08 00 00 00
  can0  106   [8]  0D 00 00 00 00 00 00 00
  can0  20D   [8]  D9 06 00 00 00 00 00 00
  can0  0D9   [8]  45 06 00 00 08 00 00 00
  can0  106   [8]  0E 00 00 00 00 00 00 00
  can0  0D9   [8]  18 07 00 00 08 00 00 00
  can0  20D   [8]  84 07 00 00 00 00 00 00
  can0  106   [8]  00 00 00 00 00 00 00 00
  can0  20D   [8]  D8 08 00 00 00 00 00 00
  can0  0D9   [8]  44 08 00 00 08 00 00 00
  can0  106   [8]  01 00 00 00 00 00 00 00
  can0  0D9   [8]  19 09 00 00 08 00 00 00
  can0  20D   [8]  85 09 00 00 00 00 00 00
  can0  43A   [8]  D8 08 00 00 00 00 00 00
  can0  20D   [8]  62 0A 00 00 00 00 00 00
  can0  112   [8]  2B 08 01 04 00 00 00 00
  can0  102   [3]  0E 48 00
  can0  0D9   [8]  FE 0A 00 00 08 00 00 00
  can0  106   [8]  02 00 00 00 00 00 00 00
  can0  20D   [8]  3F 0B 00 00 00 00 00 00
  can0  0D9   [8]  A3 0B 00 00 08 00 00 00
  can0  106   [8]  03 00 00 00 00 00 00 00
  can0  0D9   [8]  2D 0C 00 00 08 00 00 00
  can0  20D   [8]  B1 0C 00 00 00 00 00 00
  can0  106   [8]  04 00 00 00 00 00 00 00
  can0  20D   [8]  EC 0D 00 00 00 00 00 00
  can0  0D9   [8]  70 0D 00 00 08 00 00 00
  can0  106   [8]  05 00 00 00 00 00 00 00
  can0  0D9   [8]  97 0E 00 00 08 00 00 00
  can0  20D   [8]  0B 0E 00 00 00 00 00 00
  can0  112   [8]  76 09 01 04 00 00 00 00
  can0  102   [3]  42 49 00
  can0  20D   [8]  0A 00 00 00 00 00 00 00
  can0  43A   [8]  85 09 00 00 00 00 00 00
  can0  0D9   [8]  96 00 00 00 08 00 00 00
  can0  106   [8]  06 00 00 00 00 00 00 00
  can0  20D   [8]  57 01 00 00 00 00 00 00
  can0  0D9   [8]  CB 01 00 00 08 00 00 00
  can0  106   [8]  07 00 00 00 00 00 00 00
  can0  0D9   [8]  2C 02 00 00 08 00 00 00
  can0  20D   [8]  B0 02 00 00 00 00 00 00
  can0  106   [8]  08 00 00 00 00 00 00 00
  can0  20D   [8]  ED 03 00 00 00 00 00 00
  can0  0D9   [8]  71 03 00 00 08 00 00 00
  can0  106   [8]  09 00 00 00 00 00 00 00
  can0  0D9   [8]  FF 04 00 00 08 00 00 00
  can0  20D   [8]  63 04 00 00 00 00 00 00
  can0  43A   [8]  62 0A 00 00 00 00 00 00
  can0  20D   [8]  3E 05 00 00 00 00 00 00
  can0  112   [8]  91 0A 01 04 00 00 00 00
  can0  102   [3]  96 4A 00
  can0  0D9   [8]  A2 05 00 00 08 00 00 00
  can0  106   [8]  0A 00 00 00 00 00 00 00
  can0  20D   [8]  D9 06 00 00 00 00 00 00
  can0  0D9   [8]  45 06 00 00 08 00 00 00
  can0  106   [8]  0B 00 00 00 00 00 00 00
  can0  0D9   [8]  18 07 00 00 08 00 00 00
  can0  20D   [8]  84 07 00 00 00 00 00 00
  can0  106   [8]  0C 00 00 00 00 00 00 00
  can0  20D   [8]  D8 08 00 00 00 00 00 00
  can0  0D9   [8]  44 08 00 00 08 00 00 00
  can0  106   [8]  0D 00 00 00 00 00 00 00
  can0  0D9   [8]  19 09 00 00 08 00 00 00
  can0  20D   [8]  85 09 00 00 00 00 00 00
  can0  112   [8]  CC 0B 01 04 00 00 00 00
  can0  102   [3]  DA 4B 00
  can0  20D   [8]  62 0A 00 00 00 00 00 00
  can0  43A   [8]  3F 0B 00 00 00 00 00 00
  can0  0D9   [8]  FE 0A 00 00 08 00 00 00
  can0  106   [8]  0E 00 00 00 00 00 00 00
  can0  20D   [8]  3F 0B 00 00 00 00 00 00
  can0  0D9   [8]  A3 0B 00 00 08 00 00 00
  can0  106   [8]  00 00 00 00 00 00 00 00
  can0  502   [8]  00 00 FF FF FF FF FF FF
  can0  0D9   [8]  2D 0C 00 00 08 00 00 00
  can0  20D   [8]  B1 0C 00 00 00 00 00 00
  can0  106   [8]  01 00 00 00 00 00 00 00
  can0  20D   [8]  EC 0D 00 00 00 00 00 00
  can0  0D9   [8]  70 0D 00 00 08 00 00 00
  can0  106   [8]  02 00 00 00 00 00 00 00
  can0  0D9   [8]  97 0E 00 00 08 00 00 00
  can0  20D   [8]  0B 0E 00 00 00 00 00 00
  can0  112   [8]  42 0C 01 04 00 00 00 00
  can0  102   [3]  23 4C 00
  can0  20D   [8]  0A 00 00 00 00 00 00 00
  can0  43A   [8]  B1 0C 00 00 00 00 00 00
  can0  0D9   [8]  96 00 00 00 08 00 00 00
  can0  106   [8]  03 00 00 00 00 00 00 00
  can0  20D   [8]  57 01 00 00 00 00 00 00
  can0  0D9   [8]  CB 01 00 00 08 00 00 00
  can0  106   [8]  04 00 00 00 00 00 00 00
  can0  0D9   [8]  2C 02 00 00 08 00 00 00
  can0  20D   [8]  B0 02 00 00 00 00 00 00
  can0  106   [8]  05 00 00 00 00 00 00 00
  can0  20D   [8]  ED 03 00 00 00 00 00 00
  can0  0D9   [8]  71 03 00 00 08 00 00 00
  can0  106   [8]  06 00 00 00 00 00 00 00
  can0  0D9   [8]  FF 04 00 00 08 00 00 00
  can0  20D   [8]  63 04 00 00 00 00 00 00
  can0  43A   [8]  EC 0D 00 00 00 00 00 00
  can0  20D   [8]  3E 05 00 00 00 00 00 00
  can0  112   [8]  1F 0D 01 04 00 00 00 00
  can0  102   [3]  6F 4D 00
  can0  0D9   [8]  A2 05 00 00 08 00 00 00
  can0  106   [8]  07 00 00 00 00 00 00 00
  can0  20D   [8]  D9 06 00 00 00 00 00 00
  can0  0D9   [8]  45 06 00 00 08 00 00 00
  can0  106   [8]  08 00 00 00 00 00 00 00
  can0  0D9   [8]  18 07 00 00 08 00 00 00
  can0  20D   [8]  84 07 00 00 00 00 00 00
  can0  106   [8]  09 00 00 00 00 00 00 00
  can0  20D   [8]  D8 08 00 00 00 00 00 00
  can0  0D9   [8]  44 08 00 00 08 00 00 00
  can0  106   [8]  0A 00 00 00 00 00 00 00
  can0  0D9   [8]  19 09 00 00 08 00 00 00
  can0  20D   [8]  85 09 00 00 00 00 00 00
  can0  112   [8]  F8 0E 01 04 00 00 00 00
  can0  102   [3]  BB 4E 00
  can0  20D   [8]  62 0A 00 00 00 00 00 00
  can0  43A   [8]  0B 0E 00 00 00 00 00 00
  can0  0D9   [8]  FE 0A 00 00 08 00 00 00
  can0  106   [8]  0B 00 00 00 00 00 00 00
  can0  20D   [8]  3F 0B 00 00 00 00 00 00
  can0  0D9   [8]  A3 0B 00 00 08 00 00 00
  can0  106   [8]  0C 00 00 00 00 00 00 00
  can0  0D9   [8]  2D 0C 00 00 08 00 00 00
  can0  20D   [8]  B1 0C 00 00 00 00 00 00
  can0  106   [8]  0D 00 00 00 00 00 00 00
  can0  20D   [8]  EC 0D 00 00 00 00 00 00
  can0  0D9   [8]  70 0D 00 00 08 00 00 00
  can0  106   [8]  0E 00 00 00 00 00 00 00
  can0  0D9   [8]  97 0E 00 00 08 00 00 00
  can0  20D   [8]  0B 0E 00 00 00 00 00 00
  can0  43A   [8]  0A 00 00 00 00 00 00 00
  can0  20D   [8]  0A 00 00 00 00 00 00 00
  can0  4A9   [8]  D9 06 00 00 00 00 00 00
  can0  4C0   [8]  D9 06 00 00 00 00 00 00
  can0  112   [8]  F9 00 01 04 00 00 00 00
  can0  102   [3]  54 40 00
  can0  4AC   [8]  D9 06 00 00 00 00 00 00
  can0  3F7   [8]  00 00 00 00 00 00 00 00
  can0  0D9   [8]  96 00 00 00 08 00 00 00
  can0  481   [8]  D9 06 00 00 00 00 00 00
  can0  488   [8]  D9 06 00 00 00 00 00 00
  can0  106   [8]  00 00 00 00 00 00 00 00
  can0  20D   [8]  57 01 00 00 00 00 00 00
  can0  0D9   [8]  CB 01 00 00 08 00 00 00
  can0  106   [8]  01 00 00 00 00 00 00 00
  can0  20D   [8]  B0 02 00 00 00 00 00 00
  can0  0D9   [8]  2C 02 00 00 08 00 00 00
  can0  106   [8]  02 00 00 00 00 00 00 00
  can0  0D9   [8]  71 03 00 00 08 00 00 00
  can0  20D   [8]  ED 03 00 00 00 00 00 00
  can0  106   [8]  03 00 00 00 00 00 00 00
  can0  20D   [8]  63 04 00 00 00 00 00 00
  can0  0D9   [8]  FF 04 00 00 08 00 00 00
  can0  112   [8]  A4 01 01 04 00 00 00 00
  can0  102   [3]  18 41 00
  can0  0D9   [8]  A2 05 00 00 08 00 00 00
  can0  43A   [8]  57 01 00 00 00 00 00 00
  can0  20D   [8]  3E 05 00 00 00 00 00 00
  can0  106   [8]  04 00 00 00 00 00 00 00
  can0  0D9   [8]  45 06 00 00 08 00 00 00
  can0  20D   [8]  D9 06 00 00 00 00 00 00
  can0  106   [8]  05 00 00 00 00 00 00 00
  can0  20D   [8]  84 07 00 00 00 00 00 00
  can0  0D9   [8]  18 07 00 00 08 00 00 00
  can0  106   [8]  06 00 00 00 00 00 00 00
  can0  0D9   [8]  44 08 00 00 08 00 00 00
  can0  20D   [8]  D8 08 00 00 00 00 00 00
  can0  106   [8]  07 00 00 00 00 00 00 00
  can0  20D   [8]  85 09 00 00 00 00 00 00
  can0  0D9   [8]  19 09 00 00 08 00 00 00
  can0  43A   [8]  B0 02 00 00 00 00 00 00
  can0  0D9   [8]  FE 0A 00 00 08 00 00 00
  can0  112   [8]  43 02 01 04 00 00 00 00
